
T1C78 000:278 SEGGER J-Link V4.54a Log File (0021ms, 0299ms total)
T1C78 000:278 DLL Compiled: Sep 17 2012 15:58:45 (0021ms, 0299ms total)
T1C78 000:278 Logging started @ 2013-02-13 20:54 (0021ms, 0299ms total)
T1C78 000:299 JLINK_SetWarnOutHandler(...) (0000ms, 0299ms total)
T1C78 000:299 JLINK_OpenEx(...)
Firmware: Energy Micro EFM32 compiled Oct 12 2011 16:57:24
Hardware: V7.00
S/N: 440003067
Feature(s): GDB  returns O.K. (0023ms, 0322ms total)
T1C78 000:322 JLINK_SetErrorOutHandler(...) (0000ms, 0322ms total)
T1C78 000:322 JLINK_ExecCommand("ProjectFile = "D:\Care4All\PRJ\Platform\Sparrow_DIST\Bootloader\Mosquito\JLinkSettings.ini"", ...)  returns 0x00 (0006ms, 0328ms total)
T1C78 000:331 JLINK_ExecCommand("Device = EFM32GG230F512", ...)
                JLINK_ExecCommand("map ram 0x10000000 - 0x1001FFFF", ...)  returns 0x00 (0000ms, 0000ms total)
                JLINK_AddMirrorAreaEx(Addr = 0x00000000, Size = 0x00000000) (0000ms, 0000ms total)
              Device "EFM32GG230F512" selected (516 KB flash, 128 KB RAM).  returns 0x00 (0005ms, 0333ms total)
T1C78 000:336 JLINK_ExecCommand("DisableConnectionTimeout", ...)  returns 0x00 (0000ms, 0333ms total)
T1C78 000:336 JLINK_TIF_Select(JLINKARM_TIF_SWD)  returns 0x00 (0000ms, 0333ms total)
T1C78 000:336 JLINK_SetSpeed(2000) (0001ms, 0334ms total)
T1C78 000:337 JLINK_GetHardwareVersion()  returns 0x11170 (0000ms, 0334ms total)
T1C78 000:337 JLINK_GetDLLVersion()  returns 45401 (0000ms, 0334ms total)
T1C78 000:337 JLINK_GetFirmwareString(...) (0000ms, 0334ms total)
T1C78 000:344 JLINK_GetDLLVersion()  returns 45401 (0000ms, 0334ms total)
T1C78 000:344 JLINK_GetCompileDateTime() (0000ms, 0334ms total)
T1C78 000:346 JLINK_GetFirmwareString(...) (0000ms, 0334ms total)
T1C78 000:348 JLINK_GetHardwareVersion()  returns 0x11170 (0000ms, 0334ms total)
T1C78 000:356 JLINK_GetId() >0x108 TIF>Found SWD-DP with ID 0x2BA01477 >0x0D TIF> >0x21 TIF> >0x0D TIF> >0x28 TIF> >0x0D TIF> >0x28 TIF> >0x0D TIF> >0x21 TIF> >0x0D TIF> >0x21 TIF> >0x0D TIF> >0x28 TIF> >0x0D TIF> >0x21 TIF> >0x0D TIF> >0x21 TIF> >0x0D TIF> >0x21 TIF> >0x0D TIF> >0x21 TIF> >0x0D TIF> >0x28 TIF> >0x0D TIF> >0x21 TIF> >0x0D TIF> >0x28 TIF> >0x0D TIF> >0x28 TIF> >0x0D TIF> >0x21 TIF> >0x0D TIF> >0x21 TIF> >0x0D TIF> >0x28 TIF> >0x0D TIF> >0x21 TIF> >0x0D TIF> >0x21 TIF> >0x0D TIF>
 >0x28 TIF> >0x0D TIF> >0x28 TIF> >0x0D TIF> >0x28 TIF> >0x0D TIF> >0x21 TIF> >0x0D TIF> >0x21 TIF> >0x0D TIF> >0x28 TIF> >0x0D TIF> >0x28 TIF> >0x0D TIF> >0x28 TIF> >0x0D TIF> >0x21 TIF> >0x0D TIF> >0x21 TIF> >0x0D TIF> >0x21 TIF>TPIU fitted.ETM fitted. >0x0D TIF> >0x28 TIF> >0x0D TIF> >0x21 TIF> >0x0D TIF> >0x21 TIF> >0x0D TIF> >0x28 TIF> >0x0D TIF> >0x21 TIF> >0x0D TIF> >0x21 TIF>FPUnit: 6 code (BP) slots and 2 literal slots >0x0D TIF> >0x28 TIF> >0x0D TIF> >0x21 TIF> >0x0D TIF> >0x21 TIF> >0x0D TIF>
 >0x28 TIF> >0x0D TIF> >0x28 TIF> >0x0D TIF> >0x28 TIF> >0x0D TIF> >0x21 TIF> >0x0D TIF> >0x21 TIF> >0x0D TIF> >0x28 TIF> >0x0D TIF> >0x21 TIF> >0x0D TIF> >0x21 TIF> >0x0D TIF> >0x28 TIF> >0x0D TIF> >0x21 TIF> >0x0D TIF> >0x21 TIF>Found Cortex-M3 r2p1, Little endian. >0x0D TIF> >0x28 TIF> >0x0D TIF> >0x21 TIF>  returns 0x2BA01477 (0135ms, 0469ms total)
T1C78 000:491 JLINK_GetDeviceFamily()  returns 3 (0000ms, 0469ms total)
T1C78 000:493 JLINK_ReadMem (0xE00FFFF0, 0x0010 Bytes, ...) -- CPU is running -- CPU_ReadMem(16 bytes @ 0xE00FFFF0) -- Data:  0D 00 00 00 10 00 00 00 05 00 00 00 B1 00 00 00  returns 0x00 (0003ms, 0472ms total)
T1C78 000:496 JLINK_ReadMem (0xE00FFFD0, 0x0020 Bytes, ...) -- CPU is running -- CPU_ReadMem(32 bytes @ 0xE00FFFD0) -- Data:  06 00 00 00 00 00 00 00 00 00 00 00 00 00 00 00 ...  returns 0x00 (0001ms, 0473ms total)
T1C78 000:497 JLINK_ReadMem (0xE00FF000, 0x0018 Bytes, ...) -- CPU is running -- CPU_ReadMem(24 bytes @ 0xE00FF000) -- Data:  03 F0 F0 FF 03 20 F0 FF 03 30 F0 FF 03 10 F0 FF ...  returns 0x00 (0002ms, 0475ms total)
T1C78 000:499 JLINK_ReadMemU32(0xE000ED00, 0x0001 Items, ...) -- CPU is running -- CPU_ReadMem(4 bytes @ 0xE000ED00) -- Data:  31 C2 2F 41  returns 0x01 (0001ms, 0476ms total)
T1C78 000:500 JLINK_SetResetType(JLINKARM_RESET_TYPE_NORMAL)  returns JLINKARM_RESET_TYPE_NORMAL (0000ms, 0476ms total)
T1C78 000:500 JLINK_Reset() -- CPU_WriteMem(4 bytes @ 0xE0002000) (0018ms, 0494ms total)
T1C78 000:518 JLINK_Halt()  returns 0x00 (0000ms, 0494ms total)
T1C78 000:518 JLINK_IsHalted() -- MA0 is in flash -- Unmirror addr 0x00034A24  returns TRUE (0000ms, 0494ms total)
T1C78 000:518 JLINK_ReadMemU32(0xE000EDF0, 0x0001 Items, ...) -- CPU_ReadMem(4 bytes @ 0xE000EDF0) -- Data:  03 00 03 00  returns 0x01 (0002ms, 0496ms total)
T1C78 000:520 JLINK_WriteU32(0xE000EDF0, 0xA05F0003) -- CPU_WriteMem(4 bytes @ 0xE000EDF0) -- Invalidate MA0 status  returns 0x00 (0001ms, 0497ms total)
T1C78 000:521 JLINK_WriteU32(0xE000EDFC, 0x01000000) -- CPU_WriteMem(4 bytes @ 0xE000EDFC)  returns 0x00 (0002ms, 0499ms total)
T1C78 000:533 JLINK_GetHWStatus(...)  returns 0x00 (0002ms, 0501ms total)
T1C78 000:540 JLINK_GetNumBPUnits(Type = 0xFFFFFF00)  returns 0x06 (0000ms, 0501ms total)
T1C78 000:540 JLINK_GetNumBPUnits(Type = 0xF0)  returns 0x2000 (0000ms, 0501ms total)
T1C78 000:540 JLINK_GetNumWPUnits()  returns 0x04 (0000ms, 0501ms total)
T1C78 000:543 JLINK_GetSpeed()  returns 0x7D0 (0000ms, 0501ms total)
T1C78 000:545 JLINK_ReadMemU32(0xE000E004, 0x0001 Items, ...) -- CPU_ReadMem(4 bytes @ 0xE000E004) -- Data:  01 00 00 00  returns 0x01 (0002ms, 0503ms total)
T1C78 000:547 JLINK_ReadMemU32(0xE000E004, 0x0001 Items, ...) -- CPU_ReadMem(4 bytes @ 0xE000E004) -- Data:  01 00 00 00  returns 0x01 (0001ms, 0504ms total)
T1C78 000:548 JLINK_WriteMem(0xE0001000, 0x001C Bytes, ...) -- Data:  01 00 00 00 00 00 00 00 00 00 00 00 00 00 00 00 ... -- CPU_WriteMem(28 bytes @ 0xE0001000)  returns 0x1C (0002ms, 0506ms total)
T1C78 000:550 JLINK_ReadMem (0xE0001000, 0x001C Bytes, ...) -- CPU_ReadMem(28 bytes @ 0xE0001000) -- Data:  01 00 00 40 00 00 00 00 00 00 00 00 00 00 00 00 ...  returns 0x00 (0002ms, 0508ms total)
T1C78 000:552 JLINK_Halt()  returns 0x00 (0000ms, 0508ms total)
T1C78 000:552 JLINK_IsHalted() -- MA0 is in flash -- Unmirror addr 0x00034A24  returns TRUE (0000ms, 0508ms total)
T1C78 000:553 JLINK_WriteMem(0x20000000, 0x0190 Bytes, ...) -- Data:  00 BE 0A E0 0D 78 2D 06 68 40 08 24 40 00 00 D3 ... -- CPU_WriteMem(400 bytes @ 0x20000000)  returns 0x190 (0005ms, 0513ms total)
T1C78 000:558 JLINK_WriteReg(R0, 0x00000000)  returns 0x00 (0000ms, 0513ms total)
T1C78 000:558 JLINK_WriteReg(R1, 0x02DC6C00)  returns 0x00 (0000ms, 0513ms total)
T1C78 000:558 JLINK_WriteReg(R2, 0x00000001)  returns 0x00 (0000ms, 0513ms total)
T1C78 000:558 JLINK_WriteReg(R3, 0x00000000)  returns 0x00 (0000ms, 0513ms total)
T1C78 000:558 JLINK_WriteReg(R4, 0x00000000)  returns 0x00 (0000ms, 0513ms total)
T1C78 000:558 JLINK_WriteReg(R5, 0x00000000)  returns 0x00 (0000ms, 0513ms total)
T1C78 000:558 JLINK_WriteReg(R6, 0x00000000)  returns 0x00 (0000ms, 0513ms total)
T1C78 000:558 JLINK_WriteReg(R7, 0x00000000)  returns 0x00 (0000ms, 0513ms total)
T1C78 000:558 JLINK_WriteReg(R8, 0x00000000)  returns 0x00 (0000ms, 0513ms total)
T1C78 000:558 JLINK_WriteReg(R9, 0x20000184)  returns 0x00 (0000ms, 0513ms total)
T1C78 000:558 JLINK_WriteReg(R10, 0x00000000)  returns 0x00 (0000ms, 0513ms total)
T1C78 000:558 JLINK_WriteReg(R11, 0x00000000)  returns 0x00 (0000ms, 0513ms total)
T1C78 000:558 JLINK_WriteReg(R12, 0x00000000)  returns 0x00 (0000ms, 0513ms total)
T1C78 000:558 JLINK_WriteReg(R13, 0x20000800)  returns 0x00 (0000ms, 0513ms total)
T1C78 000:558 JLINK_WriteReg(R14, 0x20000001)  returns 0x00 (0000ms, 0513ms total)
T1C78 000:558 JLINK_WriteReg(R15, 0x20000040)  returns 0x00 (0000ms, 0513ms total)
T1C78 000:558 JLINK_WriteReg(XPSR, 0x01000000)  returns 0x00 (0000ms, 0513ms total)
T1C78 000:558 JLINK_WriteReg(MSP, 0x20000800)  returns 0x00 (0000ms, 0513ms total)
T1C78 000:558 JLINK_WriteReg(PSP, 0x20000800)  returns 0x00 (0000ms, 0513ms total)
T1C78 000:558 JLINK_WriteReg(CFBP, 0x00000000)  returns 0x00 (0000ms, 0513ms total)
T1C78 000:558 JLINK_SetBPEx(Addr = 0x20000000, Type = 0xFFFFFFF2)
                JLINK_ReadMemHW(0x20000000, 0x0004 Bytes, ...) -- CPU_ReadMem(4 bytes @ 0x20000000) -- Data:  00 BE 0A E0  returns 0x00 (0002ms, 0002ms total)
                JLINK_ReadMemHW(0x00000000, 0x0004 Bytes, ...) -- CPU_ReadMem(4 bytes @ 0x00000000) -- Data:  C0 0B 00 20  returns 0x00 (0001ms, 0003ms total)
               -- CPU_ReadMem(4 bytes @ 0x20000000) -- CPU_WriteMem(4 bytes @ 0x20000000) -- Invalidate MA0 status -- CPU_ReadMem(4 bytes @ 0x20000000) -- CPU_WriteMem(4 bytes @ 0x20000000) -- CPU_ReadMem(2 bytes @ 0x20000000)  returns 0x00000001 (0010ms, 0523ms total)
T1C78 000:568 JLINK_Go() -- CPU_WriteMem(2 bytes @ 0x20000000) -- CPU_WriteMem(4 bytes @ 0xE0002008) -- CPU_WriteMem(4 bytes @ 0xE000200C) -- CPU_WriteMem(4 bytes @ 0xE0002010) -- CPU_WriteMem(4 bytes @ 0xE0002014) -- CPU_WriteMem(4 bytes @ 0xE0002018) -- CPU_WriteMem(4 bytes @ 0xE000201C) (0012ms, 0535ms total)
T1C78 000:580 JLINK_IsHalted() -- CPU_ReadMem(2 bytes @ 0x20000000)  returns TRUE (0007ms, 0542ms total)
T1C78 000:587 JLINK_ReadReg(R15)  returns 0x20000000 (0000ms, 0535ms total)
T1C78 000:587 JLINK_ClrBPEx(BPHandle = 0x00000001)  returns 0x00 (0000ms, 0535ms total)
T1C78 000:587 JLINK_ReadReg(R0)  returns 0x00000000 (0000ms, 0535ms total)
T1C78 000:587 JLINK_WriteReg(R0, 0x00000000)  returns 0x00 (0000ms, 0535ms total)
T1C78 000:587 JLINK_WriteReg(R1, 0x00001000)  returns 0x00 (0000ms, 0535ms total)
T1C78 000:587 JLINK_WriteReg(R2, 0x000000FF)  returns 0x00 (0000ms, 0535ms total)
T1C78 000:587 JLINK_WriteReg(R3, 0x00000000)  returns 0x00 (0000ms, 0535ms total)
T1C78 000:587 JLINK_WriteReg(R4, 0x00000000)  returns 0x00 (0000ms, 0535ms total)
T1C78 000:587 JLINK_WriteReg(R5, 0x00000000)  returns 0x00 (0000ms, 0535ms total)
T1C78 000:587 JLINK_WriteReg(R6, 0x00000000)  returns 0x00 (0000ms, 0535ms total)
T1C78 000:587 JLINK_WriteReg(R7, 0x00000000)  returns 0x00 (0000ms, 0535ms total)
T1C78 000:587 JLINK_WriteReg(R8, 0x00000000)  returns 0x00 (0000ms, 0535ms total)
T1C78 000:587 JLINK_WriteReg(R9, 0x20000184)  returns 0x00 (0000ms, 0535ms total)
T1C78 000:587 JLINK_WriteReg(R10, 0x00000000)  returns 0x00 (0000ms, 0535ms total)
T1C78 000:587 JLINK_WriteReg(R11, 0x00000000)  returns 0x00 (0000ms, 0535ms total)
T1C78 000:587 JLINK_WriteReg(R12, 0x00000000)  returns 0x00 (0000ms, 0535ms total)
T1C78 000:587 JLINK_WriteReg(R13, 0x20000800)  returns 0x00 (0000ms, 0535ms total)
T1C78 000:587 JLINK_WriteReg(R14, 0x20000001)  returns 0x00 (0000ms, 0535ms total)
T1C78 000:587 JLINK_WriteReg(R15, 0x20000020)  returns 0x00 (0000ms, 0535ms total)
T1C78 000:587 JLINK_WriteReg(XPSR, 0x01000000)  returns 0x00 (0000ms, 0535ms total)
T1C78 000:587 JLINK_WriteReg(MSP, 0x20000800)  returns 0x00 (0000ms, 0535ms total)
T1C78 000:587 JLINK_WriteReg(PSP, 0x20000800)  returns 0x00 (0000ms, 0535ms total)
T1C78 000:587 JLINK_WriteReg(CFBP, 0x00000000)  returns 0x00 (0000ms, 0535ms total)
T1C78 000:587 JLINK_SetBPEx(Addr = 0x20000000, Type = 0xFFFFFFF2)  returns 0x00000002 (0000ms, 0535ms total)
T1C78 000:587 JLINK_Go() (0003ms, 0538ms total)
T1C78 000:590 JLINK_IsHalted() -- CPU_ReadMem(2 bytes @ 0x20000000)  returns TRUE (0007ms, 0545ms total)
T1C78 000:597 JLINK_ReadReg(R15)  returns 0x20000000 (0000ms, 0538ms total)
T1C78 000:597 JLINK_ClrBPEx(BPHandle = 0x00000002)  returns 0x00 (0000ms, 0538ms total)
T1C78 000:597 JLINK_ReadReg(R0)  returns 0x00000001 (0000ms, 0538ms total)
T1C78 000:597 JLINK_WriteReg(R0, 0x00000000)  returns 0x00 (0000ms, 0538ms total)
T1C78 000:597 JLINK_WriteReg(R1, 0x00001000)  returns 0x00 (0000ms, 0538ms total)
T1C78 000:597 JLINK_WriteReg(R2, 0x000000FF)  returns 0x00 (0000ms, 0538ms total)
T1C78 000:597 JLINK_WriteReg(R3, 0x00000000)  returns 0x00 (0000ms, 0538ms total)
T1C78 000:597 JLINK_WriteReg(R4, 0x00000000)  returns 0x00 (0000ms, 0538ms total)
T1C78 000:597 JLINK_WriteReg(R5, 0x00000000)  returns 0x00 (0000ms, 0538ms total)
T1C78 000:597 JLINK_WriteReg(R6, 0x00000000)  returns 0x00 (0000ms, 0538ms total)
T1C78 000:597 JLINK_WriteReg(R7, 0x00000000)  returns 0x00 (0000ms, 0538ms total)
T1C78 000:597 JLINK_WriteReg(R8, 0x00000000)  returns 0x00 (0001ms, 0539ms total)
T1C78 000:598 JLINK_WriteReg(R9, 0x20000184)  returns 0x00 (0000ms, 0539ms total)
T1C78 000:598 JLINK_WriteReg(R10, 0x00000000)  returns 0x00 (0000ms, 0539ms total)
T1C78 000:598 JLINK_WriteReg(R11, 0x00000000)  returns 0x00 (0000ms, 0539ms total)
T1C78 000:598 JLINK_WriteReg(R12, 0x00000000)  returns 0x00 (0000ms, 0539ms total)
T1C78 000:598 JLINK_WriteReg(R13, 0x20000800)  returns 0x00 (0000ms, 0539ms total)
T1C78 000:598 JLINK_WriteReg(R14, 0x20000001)  returns 0x00 (0000ms, 0539ms total)
T1C78 000:598 JLINK_WriteReg(R15, 0x20000084)  returns 0x00 (0000ms, 0539ms total)
T1C78 000:598 JLINK_WriteReg(XPSR, 0x01000000)  returns 0x00 (0000ms, 0539ms total)
T1C78 000:598 JLINK_WriteReg(MSP, 0x20000800)  returns 0x00 (0000ms, 0539ms total)
T1C78 000:598 JLINK_WriteReg(PSP, 0x20000800)  returns 0x00 (0000ms, 0539ms total)
T1C78 000:598 JLINK_WriteReg(CFBP, 0x00000000)  returns 0x00 (0000ms, 0539ms total)
T1C78 000:598 JLINK_SetBPEx(Addr = 0x20000000, Type = 0xFFFFFFF2)  returns 0x00000003 (0000ms, 0539ms total)
T1C78 000:598 JLINK_Go() (0003ms, 0542ms total)
T1C78 000:601 JLINK_IsHalted()  returns FALSE (0001ms, 0543ms total)
T1C78 000:652 JLINK_IsHalted() -- CPU_ReadMem(2 bytes @ 0x20000000)  returns TRUE (0007ms, 0549ms total)
T1C78 000:659 JLINK_ReadReg(R15)  returns 0x20000000 (0000ms, 0542ms total)
T1C78 000:659 JLINK_ClrBPEx(BPHandle = 0x00000003)  returns 0x00 (0000ms, 0542ms total)
T1C78 000:659 JLINK_ReadReg(R0)  returns 0x00000000 (0000ms, 0542ms total)
T1C78 000:660 JLINK_WriteReg(R0, 0x00001000)  returns 0x00 (0000ms, 0542ms total)
T1C78 000:660 JLINK_WriteReg(R1, 0x00001000)  returns 0x00 (0000ms, 0542ms total)
T1C78 000:660 JLINK_WriteReg(R2, 0x000000FF)  returns 0x00 (0000ms, 0542ms total)
T1C78 000:660 JLINK_WriteReg(R3, 0x00000000)  returns 0x00 (0000ms, 0542ms total)
T1C78 000:660 JLINK_WriteReg(R4, 0x00000000)  returns 0x00 (0000ms, 0542ms total)
T1C78 000:660 JLINK_WriteReg(R5, 0x00000000)  returns 0x00 (0000ms, 0542ms total)
T1C78 000:660 JLINK_WriteReg(R6, 0x00000000)  returns 0x00 (0000ms, 0542ms total)
T1C78 000:660 JLINK_WriteReg(R7, 0x00000000)  returns 0x00 (0000ms, 0542ms total)
T1C78 000:660 JLINK_WriteReg(R8, 0x00000000)  returns 0x00 (0000ms, 0542ms total)
T1C78 000:660 JLINK_WriteReg(R9, 0x20000184)  returns 0x00 (0000ms, 0542ms total)
T1C78 000:660 JLINK_WriteReg(R10, 0x00000000)  returns 0x00 (0000ms, 0542ms total)
T1C78 000:660 JLINK_WriteReg(R11, 0x00000000)  returns 0x00 (0000ms, 0542ms total)
T1C78 000:660 JLINK_WriteReg(R12, 0x00000000)  returns 0x00 (0000ms, 0542ms total)
T1C78 000:660 JLINK_WriteReg(R13, 0x20000800)  returns 0x00 (0000ms, 0542ms total)
T1C78 000:660 JLINK_WriteReg(R14, 0x20000001)  returns 0x00 (0000ms, 0542ms total)
T1C78 000:660 JLINK_WriteReg(R15, 0x20000020)  returns 0x00 (0000ms, 0542ms total)
T1C78 000:660 JLINK_WriteReg(XPSR, 0x01000000)  returns 0x00 (0000ms, 0542ms total)
T1C78 000:660 JLINK_WriteReg(MSP, 0x20000800)  returns 0x00 (0000ms, 0542ms total)
T1C78 000:660 JLINK_WriteReg(PSP, 0x20000800)  returns 0x00 (0000ms, 0542ms total)
T1C78 000:660 JLINK_WriteReg(CFBP, 0x00000000)  returns 0x00 (0000ms, 0542ms total)
T1C78 000:660 JLINK_SetBPEx(Addr = 0x20000000, Type = 0xFFFFFFF2)  returns 0x00000004 (0000ms, 0542ms total)
T1C78 000:660 JLINK_Go() (0004ms, 0546ms total)
T1C78 000:664 JLINK_IsHalted() -- CPU_ReadMem(2 bytes @ 0x20000000)  returns TRUE (0007ms, 0553ms total)
T1C78 000:671 JLINK_ReadReg(R15)  returns 0x20000000 (0000ms, 0546ms total)
T1C78 000:671 JLINK_ClrBPEx(BPHandle = 0x00000004)  returns 0x00 (0000ms, 0546ms total)
T1C78 000:671 JLINK_ReadReg(R0)  returns 0x00000001 (0000ms, 0546ms total)
T1C78 000:671 JLINK_WriteReg(R0, 0x00001000)  returns 0x00 (0000ms, 0546ms total)
T1C78 000:671 JLINK_WriteReg(R1, 0x00001000)  returns 0x00 (0000ms, 0546ms total)
T1C78 000:671 JLINK_WriteReg(R2, 0x000000FF)  returns 0x00 (0000ms, 0546ms total)
T1C78 000:671 JLINK_WriteReg(R3, 0x00000000)  returns 0x00 (0000ms, 0546ms total)
T1C78 000:671 JLINK_WriteReg(R4, 0x00000000)  returns 0x00 (0000ms, 0546ms total)
T1C78 000:671 JLINK_WriteReg(R5, 0x00000000)  returns 0x00 (0000ms, 0546ms total)
T1C78 000:671 JLINK_WriteReg(R6, 0x00000000)  returns 0x00 (0000ms, 0546ms total)
T1C78 000:671 JLINK_WriteReg(R7, 0x00000000)  returns 0x00 (0000ms, 0546ms total)
T1C78 000:671 JLINK_WriteReg(R8, 0x00000000)  returns 0x00 (0000ms, 0546ms total)
T1C78 000:671 JLINK_WriteReg(R9, 0x20000184)  returns 0x00 (0000ms, 0546ms total)
T1C78 000:671 JLINK_WriteReg(R10, 0x00000000)  returns 0x00 (0000ms, 0546ms total)
T1C78 000:671 JLINK_WriteReg(R11, 0x00000000)  returns 0x00 (0000ms, 0546ms total)
T1C78 000:671 JLINK_WriteReg(R12, 0x00000000)  returns 0x00 (0000ms, 0546ms total)
T1C78 000:672 JLINK_WriteReg(R13, 0x20000800)  returns 0x00 (0000ms, 0547ms total)
T1C78 000:672 JLINK_WriteReg(R14, 0x20000001)  returns 0x00 (0000ms, 0547ms total)
T1C78 000:672 JLINK_WriteReg(R15, 0x20000084)  returns 0x00 (0000ms, 0547ms total)
T1C78 000:672 JLINK_WriteReg(XPSR, 0x01000000)  returns 0x00 (0000ms, 0547ms total)
T1C78 000:672 JLINK_WriteReg(MSP, 0x20000800)  returns 0x00 (0000ms, 0547ms total)
T1C78 000:672 JLINK_WriteReg(PSP, 0x20000800)  returns 0x00 (0000ms, 0547ms total)
T1C78 000:672 JLINK_WriteReg(CFBP, 0x00000000)  returns 0x00 (0000ms, 0547ms total)
T1C78 000:672 JLINK_SetBPEx(Addr = 0x20000000, Type = 0xFFFFFFF2)  returns 0x00000005 (0000ms, 0547ms total)
T1C78 000:672 JLINK_Go() (0003ms, 0550ms total)
T1C78 000:675 JLINK_IsHalted()  returns FALSE (0001ms, 0551ms total)
T1C78 000:726 JLINK_IsHalted() -- CPU_ReadMem(2 bytes @ 0x20000000)  returns TRUE (0007ms, 0557ms total)
T1C78 000:733 JLINK_ReadReg(R15)  returns 0x20000000 (0000ms, 0550ms total)
T1C78 000:733 JLINK_ClrBPEx(BPHandle = 0x00000005)  returns 0x00 (0000ms, 0550ms total)
T1C78 000:733 JLINK_ReadReg(R0)  returns 0x00000000 (0000ms, 0550ms total)
T1C78 000:734 JLINK_WriteReg(R0, 0x00002000)  returns 0x00 (0000ms, 0550ms total)
T1C78 000:734 JLINK_WriteReg(R1, 0x00001000)  returns 0x00 (0000ms, 0550ms total)
T1C78 000:734 JLINK_WriteReg(R2, 0x000000FF)  returns 0x00 (0000ms, 0550ms total)
T1C78 000:734 JLINK_WriteReg(R3, 0x00000000)  returns 0x00 (0000ms, 0550ms total)
T1C78 000:734 JLINK_WriteReg(R4, 0x00000000)  returns 0x00 (0000ms, 0550ms total)
T1C78 000:734 JLINK_WriteReg(R5, 0x00000000)  returns 0x00 (0000ms, 0550ms total)
T1C78 000:734 JLINK_WriteReg(R6, 0x00000000)  returns 0x00 (0000ms, 0550ms total)
T1C78 000:734 JLINK_WriteReg(R7, 0x00000000)  returns 0x00 (0000ms, 0550ms total)
T1C78 000:734 JLINK_WriteReg(R8, 0x00000000)  returns 0x00 (0000ms, 0550ms total)
T1C78 000:734 JLINK_WriteReg(R9, 0x20000184)  returns 0x00 (0000ms, 0550ms total)
T1C78 000:734 JLINK_WriteReg(R10, 0x00000000)  returns 0x00 (0000ms, 0550ms total)
T1C78 000:734 JLINK_WriteReg(R11, 0x00000000)  returns 0x00 (0000ms, 0550ms total)
T1C78 000:734 JLINK_WriteReg(R12, 0x00000000)  returns 0x00 (0000ms, 0550ms total)
T1C78 000:734 JLINK_WriteReg(R13, 0x20000800)  returns 0x00 (0000ms, 0550ms total)
T1C78 000:734 JLINK_WriteReg(R14, 0x20000001)  returns 0x00 (0000ms, 0550ms total)
T1C78 000:734 JLINK_WriteReg(R15, 0x20000020)  returns 0x00 (0000ms, 0550ms total)
T1C78 000:734 JLINK_WriteReg(XPSR, 0x01000000)  returns 0x00 (0000ms, 0550ms total)
T1C78 000:734 JLINK_WriteReg(MSP, 0x20000800)  returns 0x00 (0000ms, 0550ms total)
T1C78 000:734 JLINK_WriteReg(PSP, 0x20000800)  returns 0x00 (0000ms, 0550ms total)
T1C78 000:734 JLINK_WriteReg(CFBP, 0x00000000)  returns 0x00 (0000ms, 0550ms total)
T1C78 000:734 JLINK_SetBPEx(Addr = 0x20000000, Type = 0xFFFFFFF2)  returns 0x00000006 (0000ms, 0550ms total)
T1C78 000:734 JLINK_Go() (0003ms, 0553ms total)
T1C78 000:737 JLINK_IsHalted() -- CPU_ReadMem(2 bytes @ 0x20000000)  returns TRUE (0008ms, 0561ms total)
T1C78 000:745 JLINK_ReadReg(R15)  returns 0x20000000 (0000ms, 0553ms total)
T1C78 000:745 JLINK_ClrBPEx(BPHandle = 0x00000006)  returns 0x00 (0000ms, 0553ms total)
T1C78 000:745 JLINK_ReadReg(R0)  returns 0x00000001 (0000ms, 0553ms total)
T1C78 000:745 JLINK_WriteReg(R0, 0x00002000)  returns 0x00 (0000ms, 0553ms total)
T1C78 000:745 JLINK_WriteReg(R1, 0x00001000)  returns 0x00 (0000ms, 0553ms total)
T1C78 000:745 JLINK_WriteReg(R2, 0x000000FF)  returns 0x00 (0000ms, 0553ms total)
T1C78 000:745 JLINK_WriteReg(R3, 0x00000000)  returns 0x00 (0000ms, 0553ms total)
T1C78 000:745 JLINK_WriteReg(R4, 0x00000000)  returns 0x00 (0000ms, 0553ms total)
T1C78 000:745 JLINK_WriteReg(R5, 0x00000000)  returns 0x00 (0000ms, 0553ms total)
T1C78 000:745 JLINK_WriteReg(R6, 0x00000000)  returns 0x00 (0000ms, 0553ms total)
T1C78 000:745 JLINK_WriteReg(R7, 0x00000000)  returns 0x00 (0000ms, 0553ms total)
T1C78 000:745 JLINK_WriteReg(R8, 0x00000000)  returns 0x00 (0000ms, 0553ms total)
T1C78 000:745 JLINK_WriteReg(R9, 0x20000184)  returns 0x00 (0000ms, 0553ms total)
T1C78 000:745 JLINK_WriteReg(R10, 0x00000000)  returns 0x00 (0000ms, 0553ms total)
T1C78 000:745 JLINK_WriteReg(R11, 0x00000000)  returns 0x00 (0000ms, 0553ms total)
T1C78 000:745 JLINK_WriteReg(R12, 0x00000000)  returns 0x00 (0000ms, 0553ms total)
T1C78 000:745 JLINK_WriteReg(R13, 0x20000800)  returns 0x00 (0000ms, 0553ms total)
T1C78 000:745 JLINK_WriteReg(R14, 0x20000001)  returns 0x00 (0000ms, 0553ms total)
T1C78 000:745 JLINK_WriteReg(R15, 0x20000084)  returns 0x00 (0000ms, 0553ms total)
T1C78 000:745 JLINK_WriteReg(XPSR, 0x01000000)  returns 0x00 (0000ms, 0553ms total)
T1C78 000:745 JLINK_WriteReg(MSP, 0x20000800)  returns 0x00 (0000ms, 0553ms total)
T1C78 000:745 JLINK_WriteReg(PSP, 0x20000800)  returns 0x00 (0000ms, 0553ms total)
T1C78 000:745 JLINK_WriteReg(CFBP, 0x00000000)  returns 0x00 (0000ms, 0553ms total)
T1C78 000:745 JLINK_SetBPEx(Addr = 0x20000000, Type = 0xFFFFFFF2)  returns 0x00000007 (0000ms, 0553ms total)
T1C78 000:745 JLINK_Go() (0004ms, 0557ms total)
T1C78 000:749 JLINK_IsHalted()  returns FALSE (0001ms, 0558ms total)
T1C78 000:800 JLINK_IsHalted() -- CPU_ReadMem(2 bytes @ 0x20000000)  returns TRUE (0007ms, 0564ms total)
T1C78 000:807 JLINK_ReadReg(R15)  returns 0x20000000 (0000ms, 0557ms total)
T1C78 000:807 JLINK_ClrBPEx(BPHandle = 0x00000007)  returns 0x00 (0000ms, 0557ms total)
T1C78 000:807 JLINK_ReadReg(R0)  returns 0x00000000 (0000ms, 0557ms total)
T1C78 000:808 JLINK_WriteReg(R0, 0x00003000)  returns 0x00 (0000ms, 0557ms total)
T1C78 000:808 JLINK_WriteReg(R1, 0x00001000)  returns 0x00 (0000ms, 0557ms total)
T1C78 000:808 JLINK_WriteReg(R2, 0x000000FF)  returns 0x00 (0000ms, 0557ms total)
T1C78 000:808 JLINK_WriteReg(R3, 0x00000000)  returns 0x00 (0000ms, 0557ms total)
T1C78 000:808 JLINK_WriteReg(R4, 0x00000000)  returns 0x00 (0000ms, 0557ms total)
T1C78 000:808 JLINK_WriteReg(R5, 0x00000000)  returns 0x00 (0000ms, 0557ms total)
T1C78 000:808 JLINK_WriteReg(R6, 0x00000000)  returns 0x00 (0000ms, 0557ms total)
T1C78 000:808 JLINK_WriteReg(R7, 0x00000000)  returns 0x00 (0000ms, 0557ms total)
T1C78 000:808 JLINK_WriteReg(R8, 0x00000000)  returns 0x00 (0000ms, 0557ms total)
T1C78 000:808 JLINK_WriteReg(R9, 0x20000184)  returns 0x00 (0000ms, 0557ms total)
T1C78 000:808 JLINK_WriteReg(R10, 0x00000000)  returns 0x00 (0000ms, 0557ms total)
T1C78 000:808 JLINK_WriteReg(R11, 0x00000000)  returns 0x00 (0000ms, 0557ms total)
T1C78 000:808 JLINK_WriteReg(R12, 0x00000000)  returns 0x00 (0000ms, 0557ms total)
T1C78 000:808 JLINK_WriteReg(R13, 0x20000800)  returns 0x00 (0000ms, 0557ms total)
T1C78 000:808 JLINK_WriteReg(R14, 0x20000001)  returns 0x00 (0000ms, 0557ms total)
T1C78 000:808 JLINK_WriteReg(R15, 0x20000020)  returns 0x00 (0000ms, 0557ms total)
T1C78 000:808 JLINK_WriteReg(XPSR, 0x01000000)  returns 0x00 (0000ms, 0557ms total)
T1C78 000:808 JLINK_WriteReg(MSP, 0x20000800)  returns 0x00 (0000ms, 0557ms total)
T1C78 000:808 JLINK_WriteReg(PSP, 0x20000800)  returns 0x00 (0000ms, 0557ms total)
T1C78 000:808 JLINK_WriteReg(CFBP, 0x00000000)  returns 0x00 (0000ms, 0557ms total)
T1C78 000:808 JLINK_SetBPEx(Addr = 0x20000000, Type = 0xFFFFFFF2)  returns 0x00000008 (0000ms, 0557ms total)
T1C78 000:808 JLINK_Go() (0004ms, 0561ms total)
T1C78 000:812 JLINK_IsHalted() -- CPU_ReadMem(2 bytes @ 0x20000000)  returns TRUE (0007ms, 0568ms total)
T1C78 000:819 JLINK_ReadReg(R15)  returns 0x20000000 (0000ms, 0561ms total)
T1C78 000:819 JLINK_ClrBPEx(BPHandle = 0x00000008)  returns 0x00 (0000ms, 0561ms total)
T1C78 000:819 JLINK_ReadReg(R0)  returns 0x00000001 (0000ms, 0561ms total)
T1C78 000:819 JLINK_WriteReg(R0, 0x00003000)  returns 0x00 (0000ms, 0561ms total)
T1C78 000:819 JLINK_WriteReg(R1, 0x00001000)  returns 0x00 (0000ms, 0561ms total)
T1C78 000:819 JLINK_WriteReg(R2, 0x000000FF)  returns 0x00 (0000ms, 0561ms total)
T1C78 000:819 JLINK_WriteReg(R3, 0x00000000)  returns 0x00 (0000ms, 0561ms total)
T1C78 000:819 JLINK_WriteReg(R4, 0x00000000)  returns 0x00 (0000ms, 0561ms total)
T1C78 000:819 JLINK_WriteReg(R5, 0x00000000)  returns 0x00 (0000ms, 0561ms total)
T1C78 000:819 JLINK_WriteReg(R6, 0x00000000)  returns 0x00 (0000ms, 0561ms total)
T1C78 000:819 JLINK_WriteReg(R7, 0x00000000)  returns 0x00 (0000ms, 0561ms total)
T1C78 000:819 JLINK_WriteReg(R8, 0x00000000)  returns 0x00 (0000ms, 0561ms total)
T1C78 000:819 JLINK_WriteReg(R9, 0x20000184)  returns 0x00 (0000ms, 0561ms total)
T1C78 000:819 JLINK_WriteReg(R10, 0x00000000)  returns 0x00 (0001ms, 0562ms total)
T1C78 000:820 JLINK_WriteReg(R11, 0x00000000)  returns 0x00 (0000ms, 0562ms total)
T1C78 000:820 JLINK_WriteReg(R12, 0x00000000)  returns 0x00 (0000ms, 0562ms total)
T1C78 000:820 JLINK_WriteReg(R13, 0x20000800)  returns 0x00 (0000ms, 0562ms total)
T1C78 000:820 JLINK_WriteReg(R14, 0x20000001)  returns 0x00 (0000ms, 0562ms total)
T1C78 000:820 JLINK_WriteReg(R15, 0x20000084)  returns 0x00 (0000ms, 0562ms total)
T1C78 000:820 JLINK_WriteReg(XPSR, 0x01000000)  returns 0x00 (0000ms, 0562ms total)
T1C78 000:820 JLINK_WriteReg(MSP, 0x20000800)  returns 0x00 (0000ms, 0562ms total)
T1C78 000:820 JLINK_WriteReg(PSP, 0x20000800)  returns 0x00 (0000ms, 0562ms total)
T1C78 000:820 JLINK_WriteReg(CFBP, 0x00000000)  returns 0x00 (0000ms, 0562ms total)
T1C78 000:820 JLINK_SetBPEx(Addr = 0x20000000, Type = 0xFFFFFFF2)  returns 0x00000009 (0000ms, 0562ms total)
T1C78 000:820 JLINK_Go() (0003ms, 0565ms total)
T1C78 000:823 JLINK_IsHalted()  returns FALSE (0001ms, 0566ms total)
T1C78 000:874 JLINK_IsHalted() -- CPU_ReadMem(2 bytes @ 0x20000000)  returns TRUE (0007ms, 0572ms total)
T1C78 000:881 JLINK_ReadReg(R15)  returns 0x20000000 (0000ms, 0565ms total)
T1C78 000:881 JLINK_ClrBPEx(BPHandle = 0x00000009)  returns 0x00 (0000ms, 0565ms total)
T1C78 000:881 JLINK_ReadReg(R0)  returns 0x00000000 (0000ms, 0565ms total)
T1C78 000:882 JLINK_WriteReg(R0, 0x00004000)  returns 0x00 (0000ms, 0565ms total)
T1C78 000:882 JLINK_WriteReg(R1, 0x00001000)  returns 0x00 (0000ms, 0565ms total)
T1C78 000:882 JLINK_WriteReg(R2, 0x000000FF)  returns 0x00 (0000ms, 0565ms total)
T1C78 000:882 JLINK_WriteReg(R3, 0x00000000)  returns 0x00 (0000ms, 0565ms total)
T1C78 000:882 JLINK_WriteReg(R4, 0x00000000)  returns 0x00 (0000ms, 0565ms total)
T1C78 000:882 JLINK_WriteReg(R5, 0x00000000)  returns 0x00 (0000ms, 0565ms total)
T1C78 000:882 JLINK_WriteReg(R6, 0x00000000)  returns 0x00 (0000ms, 0565ms total)
T1C78 000:882 JLINK_WriteReg(R7, 0x00000000)  returns 0x00 (0000ms, 0565ms total)
T1C78 000:882 JLINK_WriteReg(R8, 0x00000000)  returns 0x00 (0000ms, 0565ms total)
T1C78 000:882 JLINK_WriteReg(R9, 0x20000184)  returns 0x00 (0000ms, 0565ms total)
T1C78 000:882 JLINK_WriteReg(R10, 0x00000000)  returns 0x00 (0000ms, 0565ms total)
T1C78 000:882 JLINK_WriteReg(R11, 0x00000000)  returns 0x00 (0000ms, 0565ms total)
T1C78 000:882 JLINK_WriteReg(R12, 0x00000000)  returns 0x00 (0000ms, 0565ms total)
T1C78 000:882 JLINK_WriteReg(R13, 0x20000800)  returns 0x00 (0000ms, 0565ms total)
T1C78 000:882 JLINK_WriteReg(R14, 0x20000001)  returns 0x00 (0000ms, 0565ms total)
T1C78 000:882 JLINK_WriteReg(R15, 0x20000020)  returns 0x00 (0000ms, 0565ms total)
T1C78 000:882 JLINK_WriteReg(XPSR, 0x01000000)  returns 0x00 (0000ms, 0565ms total)
T1C78 000:882 JLINK_WriteReg(MSP, 0x20000800)  returns 0x00 (0000ms, 0565ms total)
T1C78 000:882 JLINK_WriteReg(PSP, 0x20000800)  returns 0x00 (0000ms, 0565ms total)
T1C78 000:882 JLINK_WriteReg(CFBP, 0x00000000)  returns 0x00 (0000ms, 0565ms total)
T1C78 000:882 JLINK_SetBPEx(Addr = 0x20000000, Type = 0xFFFFFFF2)  returns 0x0000000A (0000ms, 0565ms total)
T1C78 000:882 JLINK_Go() (0003ms, 0568ms total)
T1C78 000:885 JLINK_IsHalted() -- CPU_ReadMem(2 bytes @ 0x20000000)  returns TRUE (0008ms, 0576ms total)
T1C78 000:893 JLINK_ReadReg(R15)  returns 0x20000000 (0000ms, 0568ms total)
T1C78 000:893 JLINK_ClrBPEx(BPHandle = 0x0000000A)  returns 0x00 (0000ms, 0568ms total)
T1C78 000:893 JLINK_ReadReg(R0)  returns 0x00000001 (0000ms, 0568ms total)
T1C78 000:893 JLINK_WriteReg(R0, 0x00004000)  returns 0x00 (0000ms, 0568ms total)
T1C78 000:893 JLINK_WriteReg(R1, 0x00001000)  returns 0x00 (0000ms, 0568ms total)
T1C78 000:893 JLINK_WriteReg(R2, 0x000000FF)  returns 0x00 (0000ms, 0568ms total)
T1C78 000:893 JLINK_WriteReg(R3, 0x00000000)  returns 0x00 (0000ms, 0568ms total)
T1C78 000:893 JLINK_WriteReg(R4, 0x00000000)  returns 0x00 (0000ms, 0568ms total)
T1C78 000:893 JLINK_WriteReg(R5, 0x00000000)  returns 0x00 (0000ms, 0568ms total)
T1C78 000:893 JLINK_WriteReg(R6, 0x00000000)  returns 0x00 (0000ms, 0568ms total)
T1C78 000:893 JLINK_WriteReg(R7, 0x00000000)  returns 0x00 (0000ms, 0568ms total)
T1C78 000:893 JLINK_WriteReg(R8, 0x00000000)  returns 0x00 (0000ms, 0568ms total)
T1C78 000:893 JLINK_WriteReg(R9, 0x20000184)  returns 0x00 (0000ms, 0568ms total)
T1C78 000:893 JLINK_WriteReg(R10, 0x00000000)  returns 0x00 (0000ms, 0568ms total)
T1C78 000:893 JLINK_WriteReg(R11, 0x00000000)  returns 0x00 (0000ms, 0568ms total)
T1C78 000:893 JLINK_WriteReg(R12, 0x00000000)  returns 0x00 (0000ms, 0568ms total)
T1C78 000:893 JLINK_WriteReg(R13, 0x20000800)  returns 0x00 (0000ms, 0568ms total)
T1C78 000:893 JLINK_WriteReg(R14, 0x20000001)  returns 0x00 (0000ms, 0568ms total)
T1C78 000:893 JLINK_WriteReg(R15, 0x20000084)  returns 0x00 (0000ms, 0568ms total)
T1C78 000:893 JLINK_WriteReg(XPSR, 0x01000000)  returns 0x00 (0001ms, 0569ms total)
T1C78 000:894 JLINK_WriteReg(MSP, 0x20000800)  returns 0x00 (0000ms, 0569ms total)
T1C78 000:894 JLINK_WriteReg(PSP, 0x20000800)  returns 0x00 (0000ms, 0569ms total)
T1C78 000:894 JLINK_WriteReg(CFBP, 0x00000000)  returns 0x00 (0000ms, 0569ms total)
T1C78 000:894 JLINK_SetBPEx(Addr = 0x20000000, Type = 0xFFFFFFF2)  returns 0x0000000B (0000ms, 0569ms total)
T1C78 000:894 JLINK_Go() (0003ms, 0572ms total)
T1C78 000:897 JLINK_IsHalted()  returns FALSE (0001ms, 0573ms total)
T1C78 000:948 JLINK_IsHalted() -- CPU_ReadMem(2 bytes @ 0x20000000)  returns TRUE (0007ms, 0579ms total)
T1C78 000:955 JLINK_ReadReg(R15)  returns 0x20000000 (0000ms, 0572ms total)
T1C78 000:955 JLINK_ClrBPEx(BPHandle = 0x0000000B)  returns 0x00 (0000ms, 0572ms total)
T1C78 000:955 JLINK_ReadReg(R0)  returns 0x00000000 (0000ms, 0572ms total)
T1C78 000:956 JLINK_WriteReg(R0, 0x00005000)  returns 0x00 (0000ms, 0572ms total)
T1C78 000:956 JLINK_WriteReg(R1, 0x00001000)  returns 0x00 (0000ms, 0572ms total)
T1C78 000:956 JLINK_WriteReg(R2, 0x000000FF)  returns 0x00 (0000ms, 0572ms total)
T1C78 000:956 JLINK_WriteReg(R3, 0x00000000)  returns 0x00 (0000ms, 0572ms total)
T1C78 000:956 JLINK_WriteReg(R4, 0x00000000)  returns 0x00 (0000ms, 0572ms total)
T1C78 000:956 JLINK_WriteReg(R5, 0x00000000)  returns 0x00 (0000ms, 0572ms total)
T1C78 000:956 JLINK_WriteReg(R6, 0x00000000)  returns 0x00 (0000ms, 0572ms total)
T1C78 000:956 JLINK_WriteReg(R7, 0x00000000)  returns 0x00 (0000ms, 0572ms total)
T1C78 000:956 JLINK_WriteReg(R8, 0x00000000)  returns 0x00 (0000ms, 0572ms total)
T1C78 000:956 JLINK_WriteReg(R9, 0x20000184)  returns 0x00 (0000ms, 0572ms total)
T1C78 000:956 JLINK_WriteReg(R10, 0x00000000)  returns 0x00 (0000ms, 0572ms total)
T1C78 000:956 JLINK_WriteReg(R11, 0x00000000)  returns 0x00 (0000ms, 0572ms total)
T1C78 000:956 JLINK_WriteReg(R12, 0x00000000)  returns 0x00 (0000ms, 0572ms total)
T1C78 000:956 JLINK_WriteReg(R13, 0x20000800)  returns 0x00 (0000ms, 0572ms total)
T1C78 000:956 JLINK_WriteReg(R14, 0x20000001)  returns 0x00 (0000ms, 0572ms total)
T1C78 000:956 JLINK_WriteReg(R15, 0x20000020)  returns 0x00 (0000ms, 0572ms total)
T1C78 000:956 JLINK_WriteReg(XPSR, 0x01000000)  returns 0x00 (0000ms, 0572ms total)
T1C78 000:956 JLINK_WriteReg(MSP, 0x20000800)  returns 0x00 (0000ms, 0572ms total)
T1C78 000:956 JLINK_WriteReg(PSP, 0x20000800)  returns 0x00 (0000ms, 0572ms total)
T1C78 000:956 JLINK_WriteReg(CFBP, 0x00000000)  returns 0x00 (0000ms, 0572ms total)
T1C78 000:956 JLINK_SetBPEx(Addr = 0x20000000, Type = 0xFFFFFFF2)  returns 0x0000000C (0000ms, 0572ms total)
T1C78 000:956 JLINK_Go() (0004ms, 0576ms total)
T1C78 000:960 JLINK_IsHalted() -- CPU_ReadMem(2 bytes @ 0x20000000)  returns TRUE (0007ms, 0583ms total)
T1C78 000:967 JLINK_ReadReg(R15)  returns 0x20000000 (0000ms, 0576ms total)
T1C78 000:967 JLINK_ClrBPEx(BPHandle = 0x0000000C)  returns 0x00 (0000ms, 0576ms total)
T1C78 000:967 JLINK_ReadReg(R0)  returns 0x00000001 (0000ms, 0576ms total)
T1C78 000:967 JLINK_WriteReg(R0, 0x00005000)  returns 0x00 (0000ms, 0576ms total)
T1C78 000:967 JLINK_WriteReg(R1, 0x00001000)  returns 0x00 (0000ms, 0576ms total)
T1C78 000:967 JLINK_WriteReg(R2, 0x000000FF)  returns 0x00 (0000ms, 0576ms total)
T1C78 000:967 JLINK_WriteReg(R3, 0x00000000)  returns 0x00 (0000ms, 0576ms total)
T1C78 000:967 JLINK_WriteReg(R4, 0x00000000)  returns 0x00 (0000ms, 0576ms total)
T1C78 000:967 JLINK_WriteReg(R5, 0x00000000)  returns 0x00 (0000ms, 0576ms total)
T1C78 000:967 JLINK_WriteReg(R6, 0x00000000)  returns 0x00 (0000ms, 0576ms total)
T1C78 000:967 JLINK_WriteReg(R7, 0x00000000)  returns 0x00 (0000ms, 0576ms total)
T1C78 000:967 JLINK_WriteReg(R8, 0x00000000)  returns 0x00 (0000ms, 0576ms total)
T1C78 000:967 JLINK_WriteReg(R9, 0x20000184)  returns 0x00 (0000ms, 0576ms total)
T1C78 000:967 JLINK_WriteReg(R10, 0x00000000)  returns 0x00 (0000ms, 0576ms total)
T1C78 000:967 JLINK_WriteReg(R11, 0x00000000)  returns 0x00 (0000ms, 0576ms total)
T1C78 000:967 JLINK_WriteReg(R12, 0x00000000)  returns 0x00 (0000ms, 0576ms total)
T1C78 000:967 JLINK_WriteReg(R13, 0x20000800)  returns 0x00 (0000ms, 0576ms total)
T1C78 000:967 JLINK_WriteReg(R14, 0x20000001)  returns 0x00 (0000ms, 0576ms total)
T1C78 000:967 JLINK_WriteReg(R15, 0x20000084)  returns 0x00 (0001ms, 0577ms total)
T1C78 000:968 JLINK_WriteReg(XPSR, 0x01000000)  returns 0x00 (0000ms, 0577ms total)
T1C78 000:968 JLINK_WriteReg(MSP, 0x20000800)  returns 0x00 (0000ms, 0577ms total)
T1C78 000:968 JLINK_WriteReg(PSP, 0x20000800)  returns 0x00 (0000ms, 0577ms total)
T1C78 000:968 JLINK_WriteReg(CFBP, 0x00000000)  returns 0x00 (0000ms, 0577ms total)
T1C78 000:968 JLINK_SetBPEx(Addr = 0x20000000, Type = 0xFFFFFFF2)  returns 0x0000000D (0000ms, 0577ms total)
T1C78 000:968 JLINK_Go() (0003ms, 0580ms total)
T1C78 000:971 JLINK_IsHalted()  returns FALSE (0001ms, 0581ms total)
T1C78 001:022 JLINK_IsHalted() -- CPU_ReadMem(2 bytes @ 0x20000000)  returns TRUE (0008ms, 0588ms total)
T1C78 001:032 JLINK_ReadReg(R15)  returns 0x20000000 (0000ms, 0580ms total)
T1C78 001:032 JLINK_ClrBPEx(BPHandle = 0x0000000D)  returns 0x00 (0000ms, 0580ms total)
T1C78 001:032 JLINK_ReadReg(R0)  returns 0x00000000 (0000ms, 0580ms total)
T1C78 001:033 JLINK_WriteReg(R0, 0x00006000)  returns 0x00 (0000ms, 0580ms total)
T1C78 001:033 JLINK_WriteReg(R1, 0x00001000)  returns 0x00 (0000ms, 0580ms total)
T1C78 001:033 JLINK_WriteReg(R2, 0x000000FF)  returns 0x00 (0000ms, 0580ms total)
T1C78 001:033 JLINK_WriteReg(R3, 0x00000000)  returns 0x00 (0000ms, 0580ms total)
T1C78 001:033 JLINK_WriteReg(R4, 0x00000000)  returns 0x00 (0000ms, 0580ms total)
T1C78 001:033 JLINK_WriteReg(R5, 0x00000000)  returns 0x00 (0000ms, 0580ms total)
T1C78 001:033 JLINK_WriteReg(R6, 0x00000000)  returns 0x00 (0000ms, 0580ms total)
T1C78 001:033 JLINK_WriteReg(R7, 0x00000000)  returns 0x00 (0000ms, 0580ms total)
T1C78 001:033 JLINK_WriteReg(R8, 0x00000000)  returns 0x00 (0000ms, 0580ms total)
T1C78 001:033 JLINK_WriteReg(R9, 0x20000184)  returns 0x00 (0000ms, 0580ms total)
T1C78 001:033 JLINK_WriteReg(R10, 0x00000000)  returns 0x00 (0000ms, 0580ms total)
T1C78 001:033 JLINK_WriteReg(R11, 0x00000000)  returns 0x00 (0000ms, 0580ms total)
T1C78 001:033 JLINK_WriteReg(R12, 0x00000000)  returns 0x00 (0000ms, 0580ms total)
T1C78 001:033 JLINK_WriteReg(R13, 0x20000800)  returns 0x00 (0000ms, 0580ms total)
T1C78 001:033 JLINK_WriteReg(R14, 0x20000001)  returns 0x00 (0000ms, 0580ms total)
T1C78 001:033 JLINK_WriteReg(R15, 0x20000020)  returns 0x00 (0000ms, 0580ms total)
T1C78 001:033 JLINK_WriteReg(XPSR, 0x01000000)  returns 0x00 (0000ms, 0580ms total)
T1C78 001:033 JLINK_WriteReg(MSP, 0x20000800)  returns 0x00 (0000ms, 0580ms total)
T1C78 001:033 JLINK_WriteReg(PSP, 0x20000800)  returns 0x00 (0000ms, 0580ms total)
T1C78 001:033 JLINK_WriteReg(CFBP, 0x00000000)  returns 0x00 (0000ms, 0580ms total)
T1C78 001:033 JLINK_SetBPEx(Addr = 0x20000000, Type = 0xFFFFFFF2)  returns 0x0000000E (0000ms, 0580ms total)
T1C78 001:033 JLINK_Go() (0003ms, 0583ms total)
T1C78 001:036 JLINK_IsHalted() -- CPU_ReadMem(2 bytes @ 0x20000000)  returns TRUE (0008ms, 0591ms total)
T1C78 001:044 JLINK_ReadReg(R15)  returns 0x20000000 (0000ms, 0583ms total)
T1C78 001:044 JLINK_ClrBPEx(BPHandle = 0x0000000E)  returns 0x00 (0000ms, 0583ms total)
T1C78 001:044 JLINK_ReadReg(R0)  returns 0x00000001 (0000ms, 0583ms total)
T1C78 001:044 JLINK_WriteReg(R0, 0x00006000)  returns 0x00 (0000ms, 0583ms total)
T1C78 001:044 JLINK_WriteReg(R1, 0x00001000)  returns 0x00 (0000ms, 0583ms total)
T1C78 001:044 JLINK_WriteReg(R2, 0x000000FF)  returns 0x00 (0000ms, 0583ms total)
T1C78 001:044 JLINK_WriteReg(R3, 0x00000000)  returns 0x00 (0000ms, 0583ms total)
T1C78 001:044 JLINK_WriteReg(R4, 0x00000000)  returns 0x00 (0000ms, 0583ms total)
T1C78 001:044 JLINK_WriteReg(R5, 0x00000000)  returns 0x00 (0000ms, 0583ms total)
T1C78 001:044 JLINK_WriteReg(R6, 0x00000000)  returns 0x00 (0000ms, 0583ms total)
T1C78 001:044 JLINK_WriteReg(R7, 0x00000000)  returns 0x00 (0000ms, 0583ms total)
T1C78 001:044 JLINK_WriteReg(R8, 0x00000000)  returns 0x00 (0000ms, 0583ms total)
T1C78 001:044 JLINK_WriteReg(R9, 0x20000184)  returns 0x00 (0000ms, 0583ms total)
T1C78 001:044 JLINK_WriteReg(R10, 0x00000000)  returns 0x00 (0000ms, 0583ms total)
T1C78 001:044 JLINK_WriteReg(R11, 0x00000000)  returns 0x00 (0000ms, 0583ms total)
T1C78 001:044 JLINK_WriteReg(R12, 0x00000000)  returns 0x00 (0000ms, 0583ms total)
T1C78 001:044 JLINK_WriteReg(R13, 0x20000800)  returns 0x00 (0000ms, 0583ms total)
T1C78 001:044 JLINK_WriteReg(R14, 0x20000001)  returns 0x00 (0000ms, 0583ms total)
T1C78 001:044 JLINK_WriteReg(R15, 0x20000084)  returns 0x00 (0000ms, 0583ms total)
T1C78 001:044 JLINK_WriteReg(XPSR, 0x01000000)  returns 0x00 (0000ms, 0583ms total)
T1C78 001:044 JLINK_WriteReg(MSP, 0x20000800)  returns 0x00 (0000ms, 0583ms total)
T1C78 001:044 JLINK_WriteReg(PSP, 0x20000800)  returns 0x00 (0000ms, 0583ms total)
T1C78 001:044 JLINK_WriteReg(CFBP, 0x00000000)  returns 0x00 (0000ms, 0583ms total)
T1C78 001:044 JLINK_SetBPEx(Addr = 0x20000000, Type = 0xFFFFFFF2)  returns 0x0000000F (0000ms, 0583ms total)
T1C78 001:044 JLINK_Go() (0003ms, 0586ms total)
T1C78 001:047 JLINK_IsHalted()  returns FALSE (0002ms, 0588ms total)
T1C78 001:099 JLINK_IsHalted() -- CPU_ReadMem(2 bytes @ 0x20000000)  returns TRUE (0007ms, 0593ms total)
T1C78 001:106 JLINK_ReadReg(R15)  returns 0x20000000 (0000ms, 0586ms total)
T1C78 001:106 JLINK_ClrBPEx(BPHandle = 0x0000000F)  returns 0x00 (0000ms, 0586ms total)
T1C78 001:106 JLINK_ReadReg(R0)  returns 0x00000000 (0000ms, 0586ms total)
T1C78 001:107 JLINK_WriteReg(R0, 0x00007000)  returns 0x00 (0000ms, 0586ms total)
T1C78 001:107 JLINK_WriteReg(R1, 0x00001000)  returns 0x00 (0000ms, 0586ms total)
T1C78 001:107 JLINK_WriteReg(R2, 0x000000FF)  returns 0x00 (0000ms, 0586ms total)
T1C78 001:107 JLINK_WriteReg(R3, 0x00000000)  returns 0x00 (0000ms, 0586ms total)
T1C78 001:107 JLINK_WriteReg(R4, 0x00000000)  returns 0x00 (0000ms, 0586ms total)
T1C78 001:107 JLINK_WriteReg(R5, 0x00000000)  returns 0x00 (0000ms, 0586ms total)
T1C78 001:107 JLINK_WriteReg(R6, 0x00000000)  returns 0x00 (0000ms, 0586ms total)
T1C78 001:107 JLINK_WriteReg(R7, 0x00000000)  returns 0x00 (0000ms, 0586ms total)
T1C78 001:107 JLINK_WriteReg(R8, 0x00000000)  returns 0x00 (0000ms, 0586ms total)
T1C78 001:107 JLINK_WriteReg(R9, 0x20000184)  returns 0x00 (0000ms, 0586ms total)
T1C78 001:107 JLINK_WriteReg(R10, 0x00000000)  returns 0x00 (0000ms, 0586ms total)
T1C78 001:107 JLINK_WriteReg(R11, 0x00000000)  returns 0x00 (0000ms, 0586ms total)
T1C78 001:107 JLINK_WriteReg(R12, 0x00000000)  returns 0x00 (0000ms, 0586ms total)
T1C78 001:107 JLINK_WriteReg(R13, 0x20000800)  returns 0x00 (0000ms, 0586ms total)
T1C78 001:107 JLINK_WriteReg(R14, 0x20000001)  returns 0x00 (0000ms, 0586ms total)
T1C78 001:107 JLINK_WriteReg(R15, 0x20000020)  returns 0x00 (0000ms, 0586ms total)
T1C78 001:107 JLINK_WriteReg(XPSR, 0x01000000)  returns 0x00 (0000ms, 0586ms total)
T1C78 001:107 JLINK_WriteReg(MSP, 0x20000800)  returns 0x00 (0000ms, 0586ms total)
T1C78 001:107 JLINK_WriteReg(PSP, 0x20000800)  returns 0x00 (0000ms, 0586ms total)
T1C78 001:107 JLINK_WriteReg(CFBP, 0x00000000)  returns 0x00 (0000ms, 0586ms total)
T1C78 001:107 JLINK_SetBPEx(Addr = 0x20000000, Type = 0xFFFFFFF2)  returns 0x00000010 (0000ms, 0586ms total)
T1C78 001:107 JLINK_Go() (0004ms, 0590ms total)
T1C78 001:111 JLINK_IsHalted() -- CPU_ReadMem(2 bytes @ 0x20000000)  returns TRUE (0007ms, 0597ms total)
T1C78 001:118 JLINK_ReadReg(R15)  returns 0x20000000 (0000ms, 0590ms total)
T1C78 001:118 JLINK_ClrBPEx(BPHandle = 0x00000010)  returns 0x00 (0000ms, 0590ms total)
T1C78 001:118 JLINK_ReadReg(R0)  returns 0x00000001 (0000ms, 0590ms total)
T1C78 001:118 JLINK_WriteReg(R0, 0x00007000)  returns 0x00 (0000ms, 0590ms total)
T1C78 001:118 JLINK_WriteReg(R1, 0x00001000)  returns 0x00 (0000ms, 0590ms total)
T1C78 001:118 JLINK_WriteReg(R2, 0x000000FF)  returns 0x00 (0000ms, 0590ms total)
T1C78 001:118 JLINK_WriteReg(R3, 0x00000000)  returns 0x00 (0000ms, 0590ms total)
T1C78 001:118 JLINK_WriteReg(R4, 0x00000000)  returns 0x00 (0000ms, 0590ms total)
T1C78 001:118 JLINK_WriteReg(R5, 0x00000000)  returns 0x00 (0000ms, 0590ms total)
T1C78 001:118 JLINK_WriteReg(R6, 0x00000000)  returns 0x00 (0000ms, 0590ms total)
T1C78 001:118 JLINK_WriteReg(R7, 0x00000000)  returns 0x00 (0001ms, 0591ms total)
T1C78 001:119 JLINK_WriteReg(R8, 0x00000000)  returns 0x00 (0000ms, 0591ms total)
T1C78 001:119 JLINK_WriteReg(R9, 0x20000184)  returns 0x00 (0000ms, 0591ms total)
T1C78 001:119 JLINK_WriteReg(R10, 0x00000000)  returns 0x00 (0000ms, 0591ms total)
T1C78 001:119 JLINK_WriteReg(R11, 0x00000000)  returns 0x00 (0000ms, 0591ms total)
T1C78 001:119 JLINK_WriteReg(R12, 0x00000000)  returns 0x00 (0000ms, 0591ms total)
T1C78 001:119 JLINK_WriteReg(R13, 0x20000800)  returns 0x00 (0000ms, 0591ms total)
T1C78 001:119 JLINK_WriteReg(R14, 0x20000001)  returns 0x00 (0000ms, 0591ms total)
T1C78 001:119 JLINK_WriteReg(R15, 0x20000084)  returns 0x00 (0000ms, 0591ms total)
T1C78 001:119 JLINK_WriteReg(XPSR, 0x01000000)  returns 0x00 (0000ms, 0591ms total)
T1C78 001:119 JLINK_WriteReg(MSP, 0x20000800)  returns 0x00 (0000ms, 0591ms total)
T1C78 001:119 JLINK_WriteReg(PSP, 0x20000800)  returns 0x00 (0000ms, 0591ms total)
T1C78 001:119 JLINK_WriteReg(CFBP, 0x00000000)  returns 0x00 (0000ms, 0591ms total)
T1C78 001:119 JLINK_SetBPEx(Addr = 0x20000000, Type = 0xFFFFFFF2)  returns 0x00000011 (0000ms, 0591ms total)
T1C78 001:119 JLINK_Go() (0003ms, 0594ms total)
T1C78 001:122 JLINK_IsHalted()  returns FALSE (0001ms, 0595ms total)
T1C78 001:173 JLINK_IsHalted() -- CPU_ReadMem(2 bytes @ 0x20000000)  returns TRUE (0007ms, 0601ms total)
T1C78 001:180 JLINK_ReadReg(R15)  returns 0x20000000 (0000ms, 0594ms total)
T1C78 001:180 JLINK_ClrBPEx(BPHandle = 0x00000011)  returns 0x00 (0000ms, 0594ms total)
T1C78 001:180 JLINK_ReadReg(R0)  returns 0x00000000 (0000ms, 0594ms total)
T1C78 001:181 JLINK_WriteReg(R0, 0x00008000)  returns 0x00 (0000ms, 0594ms total)
T1C78 001:181 JLINK_WriteReg(R1, 0x00001000)  returns 0x00 (0000ms, 0594ms total)
T1C78 001:181 JLINK_WriteReg(R2, 0x000000FF)  returns 0x00 (0000ms, 0594ms total)
T1C78 001:181 JLINK_WriteReg(R3, 0x00000000)  returns 0x00 (0000ms, 0594ms total)
T1C78 001:181 JLINK_WriteReg(R4, 0x00000000)  returns 0x00 (0000ms, 0594ms total)
T1C78 001:181 JLINK_WriteReg(R5, 0x00000000)  returns 0x00 (0000ms, 0594ms total)
T1C78 001:181 JLINK_WriteReg(R6, 0x00000000)  returns 0x00 (0000ms, 0594ms total)
T1C78 001:181 JLINK_WriteReg(R7, 0x00000000)  returns 0x00 (0000ms, 0594ms total)
T1C78 001:181 JLINK_WriteReg(R8, 0x00000000)  returns 0x00 (0000ms, 0594ms total)
T1C78 001:181 JLINK_WriteReg(R9, 0x20000184)  returns 0x00 (0000ms, 0594ms total)
T1C78 001:181 JLINK_WriteReg(R10, 0x00000000)  returns 0x00 (0000ms, 0594ms total)
T1C78 001:181 JLINK_WriteReg(R11, 0x00000000)  returns 0x00 (0000ms, 0594ms total)
T1C78 001:181 JLINK_WriteReg(R12, 0x00000000)  returns 0x00 (0000ms, 0594ms total)
T1C78 001:181 JLINK_WriteReg(R13, 0x20000800)  returns 0x00 (0000ms, 0594ms total)
T1C78 001:181 JLINK_WriteReg(R14, 0x20000001)  returns 0x00 (0000ms, 0594ms total)
T1C78 001:181 JLINK_WriteReg(R15, 0x20000020)  returns 0x00 (0000ms, 0594ms total)
T1C78 001:181 JLINK_WriteReg(XPSR, 0x01000000)  returns 0x00 (0000ms, 0594ms total)
T1C78 001:181 JLINK_WriteReg(MSP, 0x20000800)  returns 0x00 (0000ms, 0594ms total)
T1C78 001:181 JLINK_WriteReg(PSP, 0x20000800)  returns 0x00 (0000ms, 0594ms total)
T1C78 001:181 JLINK_WriteReg(CFBP, 0x00000000)  returns 0x00 (0000ms, 0594ms total)
T1C78 001:181 JLINK_SetBPEx(Addr = 0x20000000, Type = 0xFFFFFFF2)  returns 0x00000012 (0000ms, 0594ms total)
T1C78 001:181 JLINK_Go() (0003ms, 0597ms total)
T1C78 001:184 JLINK_IsHalted() -- CPU_ReadMem(2 bytes @ 0x20000000)  returns TRUE (0008ms, 0605ms total)
T1C78 001:192 JLINK_ReadReg(R15)  returns 0x20000000 (0000ms, 0597ms total)
T1C78 001:192 JLINK_ClrBPEx(BPHandle = 0x00000012)  returns 0x00 (0000ms, 0597ms total)
T1C78 001:192 JLINK_ReadReg(R0)  returns 0x00000001 (0000ms, 0597ms total)
T1C78 001:192 JLINK_WriteReg(R0, 0x00008000)  returns 0x00 (0000ms, 0597ms total)
T1C78 001:192 JLINK_WriteReg(R1, 0x00001000)  returns 0x00 (0000ms, 0597ms total)
T1C78 001:192 JLINK_WriteReg(R2, 0x000000FF)  returns 0x00 (0000ms, 0597ms total)
T1C78 001:192 JLINK_WriteReg(R3, 0x00000000)  returns 0x00 (0000ms, 0597ms total)
T1C78 001:192 JLINK_WriteReg(R4, 0x00000000)  returns 0x00 (0000ms, 0597ms total)
T1C78 001:192 JLINK_WriteReg(R5, 0x00000000)  returns 0x00 (0000ms, 0597ms total)
T1C78 001:192 JLINK_WriteReg(R6, 0x00000000)  returns 0x00 (0000ms, 0597ms total)
T1C78 001:192 JLINK_WriteReg(R7, 0x00000000)  returns 0x00 (0000ms, 0597ms total)
T1C78 001:192 JLINK_WriteReg(R8, 0x00000000)  returns 0x00 (0000ms, 0597ms total)
T1C78 001:192 JLINK_WriteReg(R9, 0x20000184)  returns 0x00 (0000ms, 0597ms total)
T1C78 001:192 JLINK_WriteReg(R10, 0x00000000)  returns 0x00 (0000ms, 0597ms total)
T1C78 001:192 JLINK_WriteReg(R11, 0x00000000)  returns 0x00 (0000ms, 0597ms total)
T1C78 001:192 JLINK_WriteReg(R12, 0x00000000)  returns 0x00 (0000ms, 0597ms total)
T1C78 001:192 JLINK_WriteReg(R13, 0x20000800)  returns 0x00 (0000ms, 0597ms total)
T1C78 001:192 JLINK_WriteReg(R14, 0x20000001)  returns 0x00 (0000ms, 0597ms total)
T1C78 001:192 JLINK_WriteReg(R15, 0x20000084)  returns 0x00 (0000ms, 0597ms total)
T1C78 001:192 JLINK_WriteReg(XPSR, 0x01000000)  returns 0x00 (0000ms, 0597ms total)
T1C78 001:192 JLINK_WriteReg(MSP, 0x20000800)  returns 0x00 (0000ms, 0597ms total)
T1C78 001:192 JLINK_WriteReg(PSP, 0x20000800)  returns 0x00 (0000ms, 0597ms total)
T1C78 001:192 JLINK_WriteReg(CFBP, 0x00000000)  returns 0x00 (0000ms, 0597ms total)
T1C78 001:192 JLINK_SetBPEx(Addr = 0x20000000, Type = 0xFFFFFFF2)  returns 0x00000013 (0000ms, 0597ms total)
T1C78 001:192 JLINK_Go() (0004ms, 0601ms total)
T1C78 001:196 JLINK_IsHalted()  returns FALSE (0001ms, 0602ms total)
T1C78 001:247 JLINK_IsHalted() -- CPU_ReadMem(2 bytes @ 0x20000000)  returns TRUE (0007ms, 0608ms total)
T1C78 001:254 JLINK_ReadReg(R15)  returns 0x20000000 (0000ms, 0601ms total)
T1C78 001:254 JLINK_ClrBPEx(BPHandle = 0x00000013)  returns 0x00 (0000ms, 0601ms total)
T1C78 001:254 JLINK_ReadReg(R0)  returns 0x00000000 (0000ms, 0601ms total)
T1C78 001:254 JLINK_WriteReg(R0, 0x00009000)  returns 0x00 (0000ms, 0601ms total)
T1C78 001:254 JLINK_WriteReg(R1, 0x00001000)  returns 0x00 (0000ms, 0601ms total)
T1C78 001:254 JLINK_WriteReg(R2, 0x000000FF)  returns 0x00 (0000ms, 0601ms total)
T1C78 001:254 JLINK_WriteReg(R3, 0x00000000)  returns 0x00 (0000ms, 0601ms total)
T1C78 001:254 JLINK_WriteReg(R4, 0x00000000)  returns 0x00 (0000ms, 0601ms total)
T1C78 001:254 JLINK_WriteReg(R5, 0x00000000)  returns 0x00 (0000ms, 0601ms total)
T1C78 001:254 JLINK_WriteReg(R6, 0x00000000)  returns 0x00 (0000ms, 0601ms total)
T1C78 001:255 JLINK_WriteReg(R7, 0x00000000)  returns 0x00 (0000ms, 0601ms total)
